HEADER
"PSFversion" "1.00"
"simulator" "spectre"
"version" "19.1.0.237.isr3"
"date" "9:20:10 PM, Sun Oct 4, 2020"
"design" "//netlist"
"analysis type" "dc"
"analysis name" "dc2"
"analysis description" "DC Analysis `dc2': val1 = (1 -> 100)"
"xVecSorted" "unsorted"
"tolerance.relative" 0.00100000
"reltol" 0.00100000
"abstol(V)" 1.00000e-06
"abstol(I)" 1.00000e-12
"temp" 27.0000
"tnom" 27.0000
"tempeffects" "all"
"gmindc" 1.00000e-12
TYPE
"sweep" FLOAT DOUBLE PROP(
"key" "sweep"
)
"LogicV" FLOAT DOUBLE PROP(
"key" "node"
)
"V" FLOAT DOUBLE PROP(
"units" "V"
"key" "node"
"tolerance" 1.00000e-06
)
"I" FLOAT DOUBLE PROP(
"units" "A"
"key" "branch"
"tolerance" 1.00000e-12
)
"MMF" FLOAT DOUBLE PROP(
"units" "A*turn"
"key" "node"
"tolerance" 1.00000e-12
)
"Wb" FLOAT DOUBLE PROP(
"units" "Wb"
"key" "node"
"tolerance" 1.00000e-09
)
"Temp" FLOAT DOUBLE PROP(
"units" "C"
"key" "node"
"tolerance" 0.000100000
)
"Pwr" FLOAT DOUBLE PROP(
"units" "W"
"key" "node"
"tolerance" 1.00000e-09
)
"U" FLOAT DOUBLE PROP(
"units" ""
"key" "node"
"tolerance" 1.00000e-06
)
"V/Sec" FLOAT DOUBLE PROP(
"units" "V/s"
"key" "node"
"tolerance" 0.000100000
)
"I/Sec" FLOAT DOUBLE PROP(
"units" "A/s"
"key" "node"
"tolerance" 1.00000e-06
)
"1/Sec" FLOAT DOUBLE PROP(
"units" "1/s"
"key" "node"
"tolerance" 0.000100000
)
"HOD" FLOAT DOUBLE PROP(
"units" ""
"key" "node"
"tolerance" 0.0100000
)
"Q" FLOAT DOUBLE PROP(
"units" "Coul"
"key" "node"
"tolerance" 1.00000e-15
)
SWEEP
"val1" "sweep" PROP(
"sweep_direction" 0
"plot" 0
"grid" 3
)
TRACE
"VDD" "V"
"A" "V"
VALUE
"val1" 1.000000000000000e+00
"VDD" 1.000000000000000e+00
"A" 6.586826347305389e-01
"val1" 1.096478196143185e+00
"VDD" 1.000000000000000e+00
"A" 6.376839054159745e-01
"val1" 1.202264434617413e+00
"VDD" 1.000000000000000e+00
"A" 6.161461452261422e-01
"val1" 1.318256738556407e+00
"VDD" 1.000000000000000e+00
"A" 5.941429364552311e-01
"val1" 1.445439770745928e+00
"VDD" 1.000000000000000e+00
"A" 5.717550898227154e-01
"val1" 1.584893192461114e+00
"VDD" 1.000000000000000e+00
"A" 5.490695687531557e-01
"val1" 1.737800828749376e+00
"VDD" 1.000000000000000e+00
"A" 5.261782096352714e-01
"val1" 1.905460717963248e+00
"VDD" 1.000000000000000e+00
"A" 5.031762752527608e-01
"val1" 2.089296130854041e+00
"VDD" 1.000000000000000e+00
"A" 4.801608882065001e-01
"val1" 2.290867652767775e+00
"VDD" 1.000000000000000e+00
"A" 4.572293982783159e-01
"val1" 2.511886431509582e+00
"VDD" 1.000000000000000e+00
"A" 4.344777416816656e-01
"val1" 2.754228703338169e+00
"VDD" 1.000000000000000e+00
"A" 4.119988506385906e-01
"val1" 3.019951720402019e+00
"VDD" 1.000000000000000e+00
"A" 3.898811686696207e-01
"val1" 3.311311214825914e+00
"VDD" 1.000000000000000e+00
"A" 3.682073206643510e-01
"val1" 3.630780547701018e+00
"VDD" 1.000000000000000e+00
"A" 3.470529777854133e-01
"val1" 3.981071705534977e+00
"VDD" 1.000000000000000e+00
"A" 3.264859463356900e-01
"val1" 4.365158322401665e+00
"VDD" 1.000000000000000e+00
"A" 3.065654977979819e-01
"val1" 4.786300923226390e+00
"VDD" 1.000000000000000e+00
"A" 2.873419452659102e-01
"val1" 5.248074602497733e+00
"VDD" 1.000000000000000e+00
"A" 2.688564602730689e-01
"val1" 5.754399373371577e+00
"VDD" 1.000000000000000e+00
"A" 2.511411142861226e-01
"val1" 6.309573444801942e+00
"VDD" 1.000000000000000e+00
"A" 2.342191213423692e-01
"val1" 6.918309709189376e+00
"VDD" 1.000000000000000e+00
"A" 2.181052527443391e-01
"val1" 7.585775750291851e+00
"VDD" 1.000000000000000e+00
"A" 2.028063914193217e-01
"val1" 8.317637711026725e+00
"VDD" 1.000000000000000e+00
"A" 1.883221923729846e-01
"val1" 9.120108393559114e+00
"VDD" 1.000000000000000e+00
"A" 1.746458163383523e-01
"val1" 1.000000000000002e+01
"VDD" 1.000000000000000e+00
"A" 1.617647058823527e-01
"val1" 1.096478196143187e+01
"VDD" 1.000000000000000e+00
"A" 1.496613764821698e-01
"val1" 1.202264434617416e+01
"VDD" 1.000000000000000e+00
"A" 1.383141990271994e-01
"val1" 1.318256738556410e+01
"VDD" 1.000000000000000e+00
"A" 1.276981544798234e-01
"val1" 1.445439770745931e+01
"VDD" 1.000000000000000e+00
"A" 1.177855457363405e-01
"val1" 1.584893192461117e+01
"VDD" 1.000000000000000e+00
"A" 1.085466558317264e-01
"val1" 1.737800828749380e+01
"VDD" 1.000000000000000e+00
"A" 9.995034536015904e-02
"val1" 1.905460717963252e+01
"VDD" 1.000000000000000e+00
"A" 9.196458523247250e-02
"val1" 2.089296130854045e+01
"VDD" 1.000000000000000e+00
"A" 8.455692361137011e-02
"val1" 2.290867652767779e+01
"VDD" 1.000000000000000e+00
"A" 7.769488804829031e-02
"val1" 2.511886431509587e+01
"VDD" 1.000000000000000e+00
"A" 7.134632551747053e-02
"val1" 2.754228703338175e+01
"VDD" 1.000000000000000e+00
"A" 6.547968424987129e-02
"val1" 3.019951720402025e+01
"VDD" 1.000000000000000e+00
"A" 6.006424207172227e-02
"val1" 3.311311214825921e+01
"VDD" 1.000000000000000e+00
"A" 5.507028641441973e-02
"val1" 3.630780547701025e+01
"VDD" 1.000000000000000e+00
"A" 5.046925134912378e-02
"val1" 3.981071705534985e+01
"VDD" 1.000000000000000e+00
"A" 4.623381697157798e-02
"val1" 4.365158322401674e+01
"VDD" 1.000000000000000e+00
"A" 4.233797627507209e-02
"val1" 4.786300923226400e+01
"VDD" 1.000000000000000e+00
"A" 3.875707434929999e-02
"val1" 5.248074602497744e+01
"VDD" 1.000000000000000e+00
"A" 3.546782436952697e-02
"val1" 5.754399373371589e+01
"VDD" 1.000000000000000e+00
"A" 3.244830442577916e-02
"val1" 6.309573444801955e+01
"VDD" 1.000000000000000e+00
"A" 2.967793881055066e-02
"val1" 6.918309709189390e+01
"VDD" 1.000000000000000e+00
"A" 2.713746695448879e-02
"val1" 7.585775750291866e+01
"VDD" 1.000000000000000e+00
"A" 2.480890278615096e-02
"val1" 8.317637711026741e+01
"VDD" 1.000000000000000e+00
"A" 2.267548690339314e-02
"val1" 9.120108393559131e+01
"VDD" 1.000000000000000e+00
"A" 2.072163358597303e-02
"val1" 1.000000000000000e+02
"VDD" 1.000000000000000e+00
"A" 1.893287435456111e-02
END
