HEADER
"PSFversion" "1.00"
"simulator" "spectre"
"version" "19.1.0.237.isr3"
"date" "10:30:23 AM, Fri Oct 9, 2020"
"design" "// Point Netlist Generated on: Oct  9 10:28:19 2020"
"analysis type" "tran"
"analysis name" "tran1"
"analysis description" "Transient Analysis `tran1': time = (0 s -> 20 us)"
"xVecSorted" "ascending"
"tolerance.relative" 0.000100000
"start" 0.00000
"outputstart" 1.00000e-05
"stop" 2.00000e-05
"step" 2.00000e-08
"istep" 0.00100000
"maxstep" 2.00000e-07
"ic" "all"
"useprevic" "no"
"skipdc" "no"
"reltol" 1.00000e-05
"abstol(V)" 1.00000e-06
"abstol(I)" 1.00000e-12
"temp" 27.0000
"tnom" 27.0000
"tempeffects" "all"
"errpreset" "conservative"
"method" "gear2only"
"lteratio" 10.0000
"relref" "alllocal"
"cmin" 0.00000
"gmin" 1.00000e-12
TYPE
"sweep" FLOAT DOUBLE PROP(
"key" "sweep"
)
"LogicV" FLOAT DOUBLE PROP(
"key" "node"
)
"V" FLOAT DOUBLE PROP(
"units" "V"
"key" "node"
"tolerance" 1.00000e-06
)
"I" FLOAT DOUBLE PROP(
"units" "A"
"key" "branch"
"tolerance" 1.00000e-12
)
"MMF" FLOAT DOUBLE PROP(
"units" "A*turn"
"key" "node"
"tolerance" 1.00000e-12
)
"Wb" FLOAT DOUBLE PROP(
"units" "Wb"
"key" "node"
"tolerance" 1.00000e-09
)
"Temp" FLOAT DOUBLE PROP(
"units" "C"
"key" "node"
"tolerance" 0.000100000
)
"Pwr" FLOAT DOUBLE PROP(
"units" "W"
"key" "node"
"tolerance" 1.00000e-09
)
"U" FLOAT DOUBLE PROP(
"units" ""
"key" "node"
"tolerance" 1.00000e-06
)
"V/Sec" FLOAT DOUBLE PROP(
"units" "V/s"
"key" "node"
"tolerance" 0.000100000
)
"I/Sec" FLOAT DOUBLE PROP(
"units" "A/s"
"key" "node"
"tolerance" 1.00000e-06
)
"1/Sec" FLOAT DOUBLE PROP(
"units" "1/s"
"key" "node"
"tolerance" 0.000100000
)
"HOD" FLOAT DOUBLE PROP(
"units" ""
"key" "node"
"tolerance" 0.0100000
)
"Q" FLOAT DOUBLE PROP(
"units" "Coul"
"key" "node"
"tolerance" 1.00000e-15
)
SWEEP
"time" "sweep" PROP(
"sweep_direction" 0
"units" "s"
"plot" 0
"grid" 1
)
TRACE
"IN" "V"
"OUT" "V"
VALUE
"time" 1.000000000000000e-05
"IN" -4.999999999998306e-01
"OUT" -4.999520703040815e-01
"time" 1.000010617028885e-05
"IN" -4.893829711152928e-01
"OUT" -4.999049514922914e-01
"time" 1.000018358564592e-05
"IN" -4.816414354077582e-01
"OUT" -4.998703514615277e-01
"time" 1.000033841636007e-05
"IN" -4.661583639926890e-01
"OUT" -4.997993107470918e-01
"time" 1.000046389712258e-05
"IN" -4.536102877417345e-01
"OUT" -4.997388605745612e-01
"time" 1.000067652146999e-05
"IN" -4.323478530006289e-01
"OUT" -4.996264640403383e-01
"time" 1.000090146923886e-05
"IN" -4.098530761142218e-01
"OUT" -4.994878272350667e-01
"time" 1.000110547610276e-05
"IN" -3.894523897243215e-01
"OUT" -4.993386999646778e-01
"time" 1.000131016045832e-05
"IN" -3.689839541676506e-01
"OUT" -4.991606184159600e-01
"time" 1.000151547880167e-05
"IN" -3.484521198330395e-01
"OUT" -4.989473186631848e-01
"time" 1.000172237768686e-05
"IN" -3.277622313141316e-01
"OUT" -4.986913870121826e-01
"time" 1.000193274363118e-05
"IN" -3.067256368823431e-01
"OUT" -4.983833957796416e-01
"time" 1.000214642750387e-05
"IN" -2.853572496133652e-01
"OUT" -4.980162749449822e-01
"time" 1.000236333688746e-05
"IN" -2.636663112538004e-01
"OUT" -4.975837342732077e-01
"time" 1.000258111861524e-05
"IN" -2.418881384758367e-01
"OUT" -4.970861678377029e-01
"time" 1.000278346731055e-05
"IN" -2.216532689451828e-01
"OUT" -4.965656839533861e-01
"time" 1.000297440698118e-05
"IN" -2.025593018817017e-01
"OUT" -4.960217765859475e-01
"time" 1.000316046090486e-05
"IN" -1.839539095137191e-01
"OUT" -4.954403053825199e-01
"time" 1.000334892954704e-05
"IN" -1.651070452956934e-01
"OUT" -4.947964100899258e-01
"time" 1.000355002506327e-05
"IN" -1.449974936726070e-01
"OUT" -4.940448974845402e-01
"time" 1.000375755644029e-05
"IN" -1.242443559707559e-01
"OUT" -4.931965495098597e-01
"time" 1.000397534314800e-05
"IN" -1.024656851994220e-01
"OUT" -4.922250707240118e-01
"time" 1.000422542516798e-05
"IN" -7.745748320213963e-02
"OUT" -4.910068245403306e-01
"time" 1.000453904890088e-05
"IN" -4.609510991229676e-02
"OUT" -4.893264418567081e-01
"time" 1.000497391310540e-05
"IN" -2.608689459471292e-03
"OUT" -4.867257899612026e-01
"time" 1.000540073342065e-05
"IN" 4.007334206518021e-02
"OUT" -4.838817247564027e-01
"time" 1.000582008046092e-05
"IN" 8.200804609172208e-02
"OUT" -4.808223542019555e-01
"time" 1.000624554038453e-05
"IN" 1.245540384529732e-01
"OUT" -4.774671377944739e-01
"time" 1.000668021585280e-05
"IN" 1.680215852805679e-01
"OUT" -4.737960054674308e-01
"time" 1.000713324142128e-05
"IN" 2.133241421285483e-01
"OUT" -4.697278387873586e-01
"time" 1.000761001273260e-05
"IN" 2.610012732604768e-01
"OUT" -4.652012003394763e-01
"time" 1.000811329919131e-05
"IN" 3.113299191308361e-01
"OUT" -4.601739238373229e-01
"time" 1.000864528737395e-05
"IN" 3.645287373948811e-01
"OUT" -4.546086679300787e-01
"time" 1.000920565380819e-05
"IN" 4.205653808187931e-01
"OUT" -4.484964613762248e-01
"time" 1.000960282690409e-05
"IN" 4.602826904093071e-01
"OUT" -4.440227365635898e-01
"time" 1.001000000000000e-05
"IN" 4.999999999999905e-01
"OUT" -4.394433905823345e-01
"time" 1.001001667362453e-05
"IN" 5.000000000000000e-01
"OUT" -4.392490293939306e-01
"time" 1.001003439560620e-05
"IN" 5.000000000000000e-01
"OUT" -4.390423145892761e-01
"time" 1.001006797901017e-05
"IN" 5.000000000000000e-01
"OUT" -4.386500789948746e-01
"time" 1.001013514581811e-05
"IN" 5.000000000000000e-01
"OUT" -4.378635580736456e-01
"time" 1.001026947943400e-05
"IN" 5.000000000000000e-01
"OUT" -4.362826999959599e-01
"time" 1.001053814666577e-05
"IN" 5.000000000000000e-01
"OUT" -4.330932601647665e-01
"time" 1.001082083173658e-05
"IN" 5.000000000000000e-01
"OUT" -4.297034059896593e-01
"time" 1.001110774221364e-05
"IN" 5.000000000000000e-01
"OUT" -4.262341137872836e-01
"time" 1.001140896263397e-05
"IN" 5.000000000000000e-01
"OUT" -4.225680416336272e-01
"time" 1.001172331721420e-05
"IN" 5.000000000000000e-01
"OUT" -4.187237217096888e-01
"time" 1.001205650938433e-05
"IN" 5.000000000000000e-01
"OUT" -4.146362006019465e-01
"time" 1.001241357295981e-05
"IN" 5.000000000000000e-01
"OUT" -4.102489898278864e-01
"time" 1.001279869433297e-05
"IN" 5.000000000000000e-01
"OUT" -4.055169746049278e-01
"time" 1.001321712142326e-05
"IN" 5.000000000000000e-01
"OUT" -4.003834399836984e-01
"time" 1.001367564112272e-05
"IN" 5.000000000000000e-01
"OUT" -3.947746865593486e-01
"time" 1.001418396842440e-05
"IN" 5.000000000000000e-01
"OUT" -3.885837620376306e-01
"time" 1.001475711868624e-05
"IN" 5.000000000000000e-01
"OUT" -3.816429214549760e-01
"time" 1.001542046597484e-05
"IN" 5.000000000000000e-01
"OUT" -3.736651151446259e-01
"time" 1.001622424349980e-05
"IN" 5.000000000000000e-01
"OUT" -3.640760141634488e-01
"time" 1.001729777226775e-05
"IN" 5.000000000000000e-01
"OUT" -3.513865166791993e-01
"time" 1.001843869636536e-05
"IN" 5.000000000000000e-01
"OUT" -3.380209299678961e-01
"time" 1.001964378825126e-05
"IN" 5.000000000000000e-01
"OUT" -3.240037237978350e-01
"time" 1.002085370528150e-05
"IN" 5.000000000000000e-01
"OUT" -3.100007385761968e-01
"time" 1.002206251483232e-05
"IN" 5.000000000000000e-01
"OUT" -2.960540021556139e-01
"time" 1.002334458706243e-05
"IN" 5.000000000000000e-01
"OUT" -2.812876167869259e-01
"time" 1.002477390197758e-05
"IN" 5.000000000000000e-01
"OUT" -2.648392909347324e-01
"time" 1.002644602014022e-05
"IN" 5.000000000000000e-01
"OUT" -2.456032134411190e-01
"time" 1.002826436714029e-05
"IN" 5.000000000000000e-01
"OUT" -2.246879356106839e-01
"time" 1.003023700396402e-05
"IN" 5.000000000000000e-01
"OUT" -2.020028527275605e-01
"time" 1.003237661223405e-05
"IN" 5.000000000000000e-01
"OUT" -1.774085700714282e-01
"time" 1.003469589800925e-05
"IN" 5.000000000000000e-01
"OUT" -1.507681877419787e-01
"time" 1.003721999712217e-05
"IN" 5.000000000000000e-01
"OUT" -1.218033194729220e-01
"time" 1.003997591652487e-05
"IN" 5.000000000000000e-01
"OUT" -9.021456038743418e-02
"time" 1.004299603423601e-05
"IN" 5.000000000000000e-01
"OUT" -5.564095216808441e-02
"time" 1.004632596373863e-05
"IN" 5.000000000000000e-01
"OUT" -1.757036575735525e-02
"time" 1.005005819336577e-05
"IN" 5.000000000000000e-01
"OUT" 2.504290297475012e-02
"time" 1.005458932080191e-05
"IN" 5.000000000000000e-01
"OUT" 7.670194591571695e-02
"time" 1.005655621989727e-05
"IN" 5.000000000000000e-01
"OUT" 9.909997323871293e-02
"time" 1.005925700075805e-05
"IN" 5.000000000000000e-01
"OUT" 1.298235589105605e-01
"time" 1.006147798948252e-05
"IN" 5.000000000000000e-01
"OUT" 1.550519260551673e-01
"time" 1.006308672267605e-05
"IN" 5.000000000000000e-01
"OUT" 1.732957319395022e-01
"time" 1.006446211585366e-05
"IN" 5.000000000000000e-01
"OUT" 1.888645420392945e-01
"time" 1.006566863953301e-05
"IN" 5.000000000000000e-01
"OUT" 2.024913218441990e-01
"time" 1.006676216227347e-05
"IN" 5.000000000000000e-01
"OUT" 2.148085564948801e-01
"time" 1.006779896531394e-05
"IN" 5.000000000000000e-01
"OUT" 2.264484370677118e-01
"time" 1.006880985425530e-05
"IN" 5.000000000000000e-01
"OUT" 2.377509918002078e-01
"time" 1.006982616830072e-05
"IN" 5.000000000000000e-01
"OUT" 2.490557991149467e-01
"time" 1.007088855873369e-05
"IN" 5.000000000000000e-01
"OUT" 2.607949048565581e-01
"time" 1.007206350403750e-05
"IN" 5.000000000000000e-01
"OUT" 2.736620240879262e-01
"time" 1.007350166459303e-05
"IN" 5.000000000000000e-01
"OUT" 2.892049705987197e-01
"time" 1.007538232353518e-05
"IN" 5.000000000000000e-01
"OUT" 3.090959496668666e-01
"time" 1.007731261878318e-05
"IN" 5.000000000000000e-01
"OUT" 3.288804045266839e-01
"time" 1.007920040639397e-05
"IN" 5.000000000000000e-01
"OUT" 3.474791418768483e-01
"time" 1.008027893283111e-05
"IN" 5.000000000000000e-01
"OUT" 3.577290389599516e-01
"time" 1.008145068504250e-05
"IN" 5.000000000000000e-01
"OUT" 3.685103016870626e-01
"time" 1.008238552404926e-05
"IN" 5.000000000000000e-01
"OUT" 3.768222611300629e-01
"time" 1.008320743897727e-05
"IN" 5.000000000000000e-01
"OUT" 3.839010054476994e-01
"time" 1.008400859528540e-05
"IN" 5.000000000000000e-01
"OUT" 3.905806055436767e-01
"time" 1.008479888800561e-05
"IN" 5.000000000000000e-01
"OUT" 3.969444206139999e-01
"time" 1.008560203883618e-05
"IN" 5.000000000000000e-01
"OUT" 4.031713897278074e-01
"time" 1.008643058770108e-05
"IN" 5.000000000000000e-01
"OUT" 4.093307079924017e-01
"time" 1.008729237742515e-05
"IN" 5.000000000000000e-01
"OUT" 4.154422131684191e-01
"time" 1.008819870234586e-05
"IN" 5.000000000000000e-01
"OUT" 4.215364769182859e-01
"time" 1.008916514941321e-05
"IN" 5.000000000000000e-01
"OUT" 4.276522384386264e-01
"time" 1.009021647681244e-05
"IN" 5.000000000000000e-01
"OUT" 4.338535031715082e-01
"time" 1.009139756895070e-05
"IN" 5.000000000000000e-01
"OUT" 4.402627128036897e-01
"time" 1.009260247240089e-05
"IN" 5.000000000000000e-01
"OUT" 4.462065422262815e-01
"time" 1.009383463278735e-05
"IN" 5.000000000000000e-01
"OUT" 4.516872687441536e-01
"time" 1.009512042740974e-05
"IN" 5.000000000000000e-01
"OUT" 4.567976481995412e-01
"time" 1.009649224501261e-05
"IN" 5.000000000000000e-01
"OUT" 4.616145800211580e-01
"time" 1.009791362294881e-05
"IN" 5.000000000000000e-01
"OUT" 4.659766268781761e-01
"time" 1.009923913476537e-05
"IN" 5.000000000000000e-01
"OUT" 4.695264164841542e-01
"time" 1.010051753119999e-05
"IN" 5.000000000000000e-01
"OUT" 4.725302500914312e-01
"time" 1.010178366617511e-05
"IN" 5.000000000000000e-01
"OUT" 4.751485857140167e-01
"time" 1.010305620368660e-05
"IN" 5.000000000000000e-01
"OUT" 4.774686498590696e-01
"time" 1.010435611226561e-05
"IN" 5.000000000000000e-01
"OUT" 4.795600959812250e-01
"time" 1.010569801671576e-05
"IN" 5.000000000000000e-01
"OUT" 4.814661546035812e-01
"time" 1.010709381478675e-05
"IN" 5.000000000000000e-01
"OUT" 4.832170785939348e-01
"time" 1.010855559629713e-05
"IN" 5.000000000000000e-01
"OUT" 4.848372386656612e-01
"time" 1.011009649335990e-05
"IN" 5.000000000000000e-01
"OUT" 4.863470157173417e-01
"time" 1.011173190428850e-05
"IN" 5.000000000000000e-01
"OUT" 4.877641426076714e-01
"time" 1.011348049781846e-05
"IN" 5.000000000000000e-01
"OUT" 4.891040630005424e-01
"time" 1.011536526763922e-05
"IN" 5.000000000000000e-01
"OUT" 4.903798507093470e-01
"time" 1.011741491900773e-05
"IN" 5.000000000000000e-01
"OUT" 4.916019269754202e-01
"time" 1.011966559774927e-05
"IN" 5.000000000000000e-01
"OUT" 4.927774865336789e-01
"time" 1.012214444245908e-05
"IN" 5.000000000000000e-01
"OUT" 4.939017301589635e-01
"time" 1.012485860593504e-05
"IN" 5.000000000000000e-01
"OUT" 4.949576795423167e-01
"time" 1.012786144665282e-05
"IN" 5.000000000000000e-01
"OUT" 4.959430582721313e-01
"time" 1.013121434482347e-05
"IN" 5.000000000000000e-01
"OUT" 4.968490819093690e-01
"time" 1.013497512188554e-05
"IN" 5.000000000000000e-01
"OUT" 4.976595009058354e-01
"time" 1.013917836043271e-05
"IN" 5.000000000000000e-01
"OUT" 4.983533332948380e-01
"time" 1.014381268474319e-05
"IN" 5.000000000000000e-01
"OUT" 4.989124938470373e-01
"time" 1.014883027881433e-05
"IN" 5.000000000000000e-01
"OUT" 4.993330112886092e-01
"time" 1.015419238481434e-05
"IN" 5.000000000000000e-01
"OUT" 4.996288067876387e-01
"time" 1.015991244456355e-05
"IN" 5.000000000000000e-01
"OUT" 4.998245791745411e-01
"time" 1.016607242111949e-05
"IN" 5.000000000000000e-01
"OUT" 4.999462426459917e-01
"time" 1.017282696435312e-05
"IN" 5.000000000000000e-01
"OUT" 5.000156367941029e-01
"time" 1.018041441625829e-05
"IN" 5.000000000000000e-01
"OUT" 5.000493626049902e-01
"time" 1.018918567616769e-05
"IN" 5.000000000000000e-01
"OUT" 5.000595739292870e-01
"time" 1.019966320593891e-05
"IN" 5.000000000000000e-01
"OUT" 5.000552914206039e-01
"time" 1.021265563897346e-05
"IN" 5.000000000000000e-01
"OUT" 5.000435891500751e-01
"time" 1.022950040308746e-05
"IN" 5.000000000000000e-01
"OUT" 5.000302984919591e-01
"time" 1.025269105381627e-05
"IN" 5.000000000000000e-01
"OUT" 5.000199290216566e-01
"time" 1.028805107383492e-05
"IN" 5.000000000000000e-01
"OUT" 5.000148519910254e-01
"time" 1.034754156524741e-05
"IN" 5.000000000000000e-01
"OUT" 5.000146370467817e-01
"time" 1.042319422785151e-05
"IN" 5.000000000000000e-01
"OUT" 5.000158759342963e-01
"time" 1.050000000000000e-05
"IN" 5.000000000000000e-01
"OUT" 5.000163496897519e-01
"time" 1.050010617028884e-05
"IN" 4.893829711154410e-01
"OUT" 4.999656717626473e-01
"time" 1.050018358564592e-05
"IN" 4.816414354079064e-01
"OUT" 4.999285609817827e-01
"time" 1.050033841636007e-05
"IN" 4.661583639928372e-01
"OUT" 4.998530817858887e-01
"time" 1.050045329597811e-05
"IN" 4.546704021889423e-01
"OUT" 4.997953731362065e-01
"time" 1.050065343420201e-05
"IN" 4.346565797990783e-01
"OUT" 4.996889559669566e-01
"time" 1.050092115701569e-05
"IN" 4.078842984306968e-01
"OUT" 4.995289284948822e-01
"time" 1.050119414704950e-05
"IN" 3.805852950503278e-01
"OUT" 4.993369344284023e-01
"time" 1.050142937748938e-05
"IN" 3.570622510623277e-01
"OUT" 4.991419490765923e-01
"time" 1.050164023604477e-05
"IN" 3.359763955226511e-01
"OUT" 4.989394294140105e-01
"time" 1.050183233632754e-05
"IN" 3.167663672457957e-01
"OUT" 4.987290757062184e-01
"time" 1.050200883865081e-05
"IN" 2.991161349187718e-01
"OUT" 4.985121536335504e-01
"time" 1.050217356317644e-05
"IN" 2.826436823558928e-01
"OUT" 4.982880763786773e-01
"time" 1.050232887919928e-05
"IN" 2.671120800715589e-01
"OUT" 4.980568795392453e-01
"time" 1.050247686970394e-05
"IN" 2.523130296060110e-01
"OUT" 4.978179181590739e-01
"time" 1.050261995473063e-05
"IN" 2.380045269373787e-01
"OUT" 4.975686961991065e-01
"time" 1.050276107928413e-05
"IN" 2.238920715871742e-01
"OUT" 4.973041166848524e-01
"time" 1.050290407571402e-05
"IN" 2.095924285980589e-01
"OUT" 4.970152033992726e-01
"time" 1.050305427906316e-05
"IN" 1.945720936840907e-01
"OUT" 4.966867352900168e-01
"time" 1.050322014411435e-05
"IN" 1.779855885651567e-01
"OUT" 4.962911783265439e-01
"time" 1.050341548149739e-05
"IN" 1.584518502611474e-01
"OUT" 4.957772861967522e-01
"time" 1.050362163142570e-05
"IN" 1.378368574298325e-01
"OUT" 4.951752455116503e-01
"time" 1.050385010839229e-05
"IN" 1.149891607707551e-01
"OUT" 4.944340690634257e-01
"time" 1.050408831948604e-05
"IN" 9.116805139602435e-02
"OUT" 4.935778255734756e-01
"time" 1.050430816707153e-05
"IN" 6.918329284672359e-02
"OUT" 4.927124646845175e-01
"time" 1.050452400825201e-05
"IN" 4.759917479842224e-02
"OUT" 4.917939407505963e-01
"time" 1.050474309083754e-05
"IN" 2.569091624574610e-02
"OUT" 4.907935131297161e-01
"time" 1.050496904314066e-05
"IN" 3.095685934192682e-03
"OUT" 4.896920616631599e-01
"time" 1.050520566295253e-05
"IN" -2.056629525336195e-02
"OUT" 4.884655907280834e-01
"time" 1.050545501205691e-05
"IN" -4.550120569115701e-02
"OUT" 4.870957748506383e-01
"time" 1.050571862205751e-05
"IN" -7.186220575084601e-02
"OUT" 4.855655437700918e-01
"time" 1.050599812342860e-05
"IN" -9.981234286053364e-02
"OUT" 4.838561014621889e-01
"time" 1.050629538056406e-05
"IN" -1.295380564056412e-01
"OUT" 4.819460678488469e-01
"time" 1.050661268861881e-05
"IN" -1.612688618809807e-01
"OUT" 4.798099928788533e-01
"time" 1.050695288811510e-05
"IN" -1.952888115099588e-01
"OUT" 4.774171641454761e-01
"time" 1.050731949655802e-05
"IN" -2.319496558025002e-01
"OUT" 4.747301691866505e-01
"time" 1.050771692390167e-05
"IN" -2.716923901672317e-01
"OUT" 4.717026945418829e-01
"time" 1.050815080375595e-05
"IN" -3.150803755948032e-01
"OUT" 4.682761865340721e-01
"time" 1.050862851798717e-05
"IN" -3.628517987171596e-01
"OUT" 4.643745793188723e-01
"time" 1.050916005804359e-05
"IN" -4.160058043587266e-01
"OUT" 4.598956178132680e-01
"time" 1.050958002902179e-05
"IN" -4.580029021792844e-01
"OUT" 4.562662996329107e-01
"time" 1.051000000000000e-05
"IN" -5.000000000000000e-01
"OUT" 4.525673228089327e-01
"time" 1.051001700803308e-05
"IN" -5.000000000000000e-01
"OUT" 4.524162828028763e-01
"time" 1.051003517831415e-05
"IN" -5.000000000000000e-01
"OUT" 4.522548393965629e-01
"time" 1.051007001676319e-05
"IN" -5.000000000000000e-01
"OUT" 4.519449766692862e-01
"time" 1.051013969366129e-05
"IN" -5.000000000000000e-01
"OUT" 4.513239268888252e-01
"time" 1.051027904745748e-05
"IN" -5.000000000000000e-01
"OUT" 4.500766100248451e-01
"time" 1.051055775504985e-05
"IN" -5.000000000000000e-01
"OUT" 4.475621058335249e-01
"time" 1.051100804274990e-05
"IN" -5.000000000000000e-01
"OUT" 4.434481789520297e-01
"time" 1.051149007812545e-05
"IN" -5.000000000000000e-01
"OUT" 4.389807060013130e-01
"time" 1.051201264949068e-05
"IN" -5.000000000000000e-01
"OUT" 4.340720544969578e-01
"time" 1.051259833115256e-05
"IN" -5.000000000000000e-01
"OUT" 4.285000659454145e-01
"time" 1.051327591750800e-05
"IN" -5.000000000000000e-01
"OUT" 4.219736730518087e-01
"time" 1.051397701864336e-05
"IN" -5.000000000000000e-01
"OUT" 4.151428784836169e-01
"time" 1.051470046256041e-05
"IN" -5.000000000000000e-01
"OUT" 4.080227648765847e-01
"time" 1.051545697528157e-05
"IN" -5.000000000000000e-01
"OUT" 4.005097033504794e-01
"time" 1.051625487454273e-05
"IN" -5.000000000000000e-01
"OUT" 3.925202812440365e-01
"time" 1.051710684747614e-05
"IN" -5.000000000000000e-01
"OUT" 3.839242248842532e-01
"time" 1.051802550384350e-05
"IN" -5.000000000000000e-01
"OUT" 3.745886125439554e-01
"time" 1.051902362882253e-05
"IN" -5.000000000000000e-01
"OUT" 3.643758130292957e-01
"time" 1.052011529337985e-05
"IN" -5.000000000000000e-01
"OUT" 3.531324501805483e-01
"time" 1.052131623546960e-05
"IN" -5.000000000000000e-01
"OUT" 3.406855924557712e-01
"time" 1.052264443838130e-05
"IN" -5.000000000000000e-01
"OUT" 3.268369084576588e-01
"time" 1.052412064013877e-05
"IN" -5.000000000000000e-01
"OUT" 3.113575736198179e-01
"time" 1.052576895746864e-05
"IN" -5.000000000000000e-01
"OUT" 2.939820840027810e-01
"time" 1.052761806372429e-05
"IN" -5.000000000000000e-01
"OUT" 2.743963197302072e-01
"time" 1.052970349536026e-05
"IN" -5.000000000000000e-01
"OUT" 2.522135945853103e-01
"time" 1.053207195939348e-05
"IN" -5.000000000000000e-01
"OUT" 2.269291374389503e-01
"time" 1.053478896310497e-05
"IN" -5.000000000000000e-01
"OUT" 1.978386294383576e-01
"time" 1.053795217885221e-05
"IN" -5.000000000000000e-01
"OUT" 1.638948589125918e-01
"time" 1.054171587514147e-05
"IN" -5.000000000000000e-01
"OUT" 1.234455763418247e-01
"time" 1.054633951510128e-05
"IN" -5.000000000000000e-01
