HEADER
"PSFversion" "1.00"
"simulator" "spectre"
"version" "19.1.0.237.isr3"
"date" "10:24:37 AM, Fri Oct 9, 2020"
"design" "// Point Netlist Generated on: Oct  9 10:16:20 2020"
"analysis type" "xf"
"analysis name" "xf1"
"analysis description" "Transfer Function Analysis `xf1': freq = (1 Hz -> 100 GHz)"
"xVecSorted" "ascending"
"tolerance.relative" 0.000100000
"start" 1.00000
"stop" 1.00000e+11
"operating point producer" "xf1"
"stimuli" "sources"
"output" "pair of nodes"
"ground" "0"
"positive output signal" "OUT"
"negative output signal" "CM"
TYPE
"sweep" FLOAT DOUBLE PROP(
"key" "sweep"
)
"V/V" COMPLEX DOUBLE PROP(
"units" "V/V"
"key" "branch"
)
"V/A" COMPLEX DOUBLE PROP(
"units" "V/A"
"key" "node"
)
"V/A*turn" COMPLEX DOUBLE PROP(
"units" "V/A*turn"
"key" "branch"
)
"V/Wb" COMPLEX DOUBLE PROP(
"units" "V/Wb"
"key" "branch"
)
"V/C" COMPLEX DOUBLE PROP(
"units" "V/C"
"key" "branch"
)
"V/W" COMPLEX DOUBLE PROP(
"units" "V/W"
"key" "branch"
)
"V/" COMPLEX DOUBLE PROP(
"units" "V/"
"key" "branch"
)
"V/(V/s)" COMPLEX DOUBLE PROP(
"units" "V/(V/s)"
"key" "branch"
)
"V/(A/s)" COMPLEX DOUBLE PROP(
"units" "V/(A/s)"
"key" "branch"
)
"V/(1/s)" COMPLEX DOUBLE PROP(
"units" "V/(1/s)"
"key" "branch"
)
"V/Coul" COMPLEX DOUBLE PROP(
"units" "V/Coul"
"key" "branch"
)
SWEEP
"freq" "sweep" PROP(
"sweep_direction" 0
"units" "Hz"
"plot" 0
"grid" 3
)
TRACE
"V0" "V/V"
"V1" "V/V"
"V2" "V/V"
"V3" "V/V"
"V4" "V/V"
VALUE
"freq" 1.00000
"V0" (149312. -2275.83)
"V1" (0.451561 -0.00688042)
"V2" (0.188939 0.0117622)
"V3" (-0.356075 0.00488176)
"V4" (149312. -2275.83)
"freq" 1.65959
"V0" (149251. -3775.40)
"V1" (0.451377 -0.0114140)
"V2" (0.189254 0.0195125)
"V3" (-0.355945 0.00809841)
"V4" (149251. -3775.40)
"freq" 2.75423
"V0" (149083. -6258.58)
"V1" (0.450871 -0.0189213)
"V2" (0.190118 0.0323464)
"V3" (-0.355586 0.0134250)
"V4" (149083. -6258.58)
"freq" 4.57088
"V0" (148625. -10354.7)
"V1" (0.449485 -0.0313049)
"V2" (0.192489 0.0535164)
"V3" (-0.354602 0.0222113)
"V4" (148625. -10354.7)
"freq" 7.58578
"V0" (147376. -17040.1)
"V1" (0.445709 -0.0515167)
"V2" (0.198943 0.0880689)
"V3" (-0.351923 0.0365519)
"V4" (147376. -17040.1)
"freq" 12.5893
"V0" (144042. -27639.9)
"V1" (0.435631 -0.0835627)
"V2" (0.216172 0.142852)
"V3" (-0.344773 0.0592890)
"V4" (144042. -27639.9)
"freq" 20.8930
"V0" (135595. -43180.8)
"V1" (0.410093 -0.130547)
"V2" (0.259830 0.223172)
"V3" (-0.326653 0.0926249)
"V4" (135595. -43180.8)
"freq" 34.6737
"V0" (116739. -61696.9)
"V1" (0.353087 -0.186526)
"V2" (0.357284 0.318869)
"V3" (-0.286206 0.132343)
"V4" (116739. -61696.9)
"freq" 57.5440
"V0" (84410.1 -74035.7)
"V1" (0.255347 -0.223829)
"V2" (0.524373 0.382639)
"V3" (-0.216858 0.158810)
"V4" (84410.1 -74035.7)
"freq" 95.4993
"V0" (47885.6 -69703.1)
"V1" (0.144924 -0.210731)
"V2" (0.713144 0.360244)
"V3" (-0.138511 0.149516)
"V4" (47885.6 -69703.1)
"freq" 158.489
"V0" (21847.9 -52778.8)
"V1" (0.0662051 -0.159564)
"V2" (0.847716 0.272769)
"V3" (-0.0826584 0.113211)
"V4" (21847.9 -52778.8)
"freq" 263.027
"V0" (8747.39 -35070.0)
"V1" (0.0265990 -0.106026)
"V2" (0.915424 0.181237)
"V3" (-0.0545572 0.0752238)
"V4" (8747.39 -35070.0)
"freq" 436.516
"V0" (3298.91 -21950.7)
"V1" (0.0101268 -0.0663628)
"V2" (0.943584 0.113420)
"V3" (-0.0428699 0.0470798)
"V4" (3298.91 -21950.7)
"freq" 724.436
"V0" (1214.70 -13415.3)
"V1" (0.00382567 -0.0405584)
"V2" (0.954356 0.0692875)
"V3" (-0.0383992 0.0287674)
"V4" (1214.70 -13415.3)
"freq" 1202.26
"V0" (443.172 -8125.65)
"V1" (0.00149314 -0.0245665)
"V2" (0.958343 0.0419170)
"V3" (-0.0367442 0.0174145)
"V4" (443.172 -8125.65)
"freq" 1995.26
"V0" (161.055 -4905.46)
"V1" (0.000640231 -0.0148315)
"V2" (0.959801 0.0252217)
"V3" (-0.0361391 0.0104969)
"V4" (161.055 -4905.46)
"freq" 3311.31
"V0" (58.3597 -2957.87)
"V1" (0.000329756 -0.00894401)
"V2" (0.960332 0.0150691)
"V3" (-0.0359189 0.00630227)
"V4" (58.3597 -2957.87)
"freq" 5495.41
"V0" (21.0383 -1782.74)
"V1" (0.000216921 -0.00539235)
"V2" (0.960525 0.00885169)
"V3" (-0.0358391 0.00375350)
"V4" (21.0383 -1782.74)
"freq" 9120.11
"V0" (7.48313 -1074.30)
"V1" (0.000175935 -0.00325232)
"V2" (0.960594 0.00495140)
"V3" (-0.0358106 0.00218732)
"V4" (7.48313 -1074.30)
"freq" 15135.6
"V0" (2.56093 -647.353)
"V1" (0.000161038 -0.00196446)
"V2" (0.960618 0.00234840)
"V3" (-0.0358016 0.00119426)
"V4" (2.56093 -647.353)
"freq" 25118.9
"V0" (0.773705 -390.073)
"V1" (0.000155591 -0.00119148)
"V2" (0.960621 0.000360941)
"V3" (-0.0358022 0.000514274)
"V4" (0.773705 -390.073)
"freq" 41686.9
"V0" (0.124792 -235.043)
"V1" (0.000153509 -0.000730815)
"V2" (0.960610 -0.00153157)
"V3" (-0.0358131 -3.05465e-05)
"V4" (0.124792 -235.043)
"freq" 69183.1
"V0" (-0.110815 -141.628)
"V1" (0.000152465 -0.000461726)
"V2" (0.960569 -0.00382392)
"V3" (-0.0358462 -0.000581738)
"V4" (-0.110815 -141.628)
"freq" 114815.
"V0" (-0.196358 -85.3391)
"V1" (0.000151293 -0.000313661)
"V2" (0.960457 -0.00711117)
"V3" (-0.0359379 -0.00127800)
"V4" (-0.196358 -85.3391)
"freq" 190546.
"V0" (-0.227416 -51.4216)
"V1" (0.000148686 -0.000247753)
"V2" (0.960150 -0.0122290)
"V3" (-0.0361857 -0.00227610)
"V4" (-0.227416 -51.4216)
"freq" 316228.
"V0" (-0.238689 -30.9841)
"V1" (0.000141750 -0.000246482)
"V2" (0.959343 -0.0204083)
"V3" (-0.0368307 -0.00372861)
"V4" (-0.238689 -30.9841)
"freq" 524807.
"V0" (-0.242772 -18.6689)
"V1" (0.000122861 -0.000308431)
"V2" (0.957361 -0.0333781)
"V3" (-0.0383654 -0.00560824)
"V4" (-0.242772 -18.6689)
"freq" 870964.
"V0" (-0.244236 -11.2478)
"V1" (7.17765e-05 -0.000445075)
"V2" (0.953131 -0.0533759)
"V3" (-0.0413648 -0.00727812)
"V4" (-0.244236 -11.2478)
"freq" 1.44544e+06
"V0" (-0.244740 -6.77532)
"V1" (-6.30816e-05 -0.000671892)
"V2" (0.945477 -0.0838614)
"V3" (-0.0456404 -0.00754406)
"V4" (-0.244740 -6.77532)
"freq" 2.39883e+06
"V0" (-0.244952 -4.07913)
"V1" (-0.000397366 -0.000966409)
"V2" (0.931390 -0.131542)
"V3" (-0.0505023 -0.00587889)
"V4" (-0.244952 -4.07913)
"freq" 3.98107e+06
"V0" (-0.245596 -2.45270)
"V1" (-0.00110087 -0.00113001)
"V2" (0.900786 -0.204982)
"V3" (-0.0563491 -0.00100522)
"V4" (-0.245596 -2.45270)
"freq" 6.60693e+06
"V0" (-0.248957 -1.46909)
"V1" (-0.00209419 -0.000619222)
"V2" (0.833218 -0.306956)
"V3" (-0.0607725 0.0117253)
"V4" (-0.248957 -1.46909)
"freq" 1.09648e+07
"V0" (-0.258201 -0.863808)
"V1" (-0.00245379 0.000965292)
"V2" (0.700730 -0.421600)
"V3" (-0.0523285 0.0324245)
"V4" (-0.258201 -0.863808)
"freq" 1.81970e+07
"V0" (-0.262009 -0.464246)
"V1" (-0.000949096 0.00258221)
"V2" (0.489439 -0.499351)
"V3" (-0.0238319 0.0427423)
"V4" (-0.262009 -0.464246)
"freq" 3.01995e+07
"V0" (-0.219098 -0.182655)
"V1" (0.00169710 0.00183573)
"V2" (0.241532 -0.481472)
"V3" (0.00270141 0.0251660)
"V4" (-0.219098 -0.182655)
"freq" 5.01187e+07
"V0" (-0.119682 -0.0279332)
"V1" (0.00164258 -0.00102902)
"V2" (0.0382828 -0.360002)
"V3" (0.000682981 0.000327518)
"V4" (-0.119682 -0.0279332)
"freq" 8.31764e+07
"V0" (-0.0393224 0.00752404)
"V1" (-0.000538336 -0.00111865)
"V2" (-0.0506541 -0.194666)
"V3" (-0.0128617 -0.00238950)
"V4" (-0.0393224 0.00752404)
"freq" 1.38038e+08
"V0" (-0.0101695 0.00429894)
"V1" (-0.000672928 2.75748e-05)
"V2" (-0.0451202 -0.0815716)
"V3" (-0.0139858 0.00402603)
"V4" (-0.0101695 0.00429894)
"freq" 2.29087e+08
"V0" (-0.00285488 0.00126214)
"V1" (-0.000249447 0.000237509)
"V2" (-0.0216823 -0.0334547)
"V3" (-0.0100430 0.00545919)
"V4" (-0.00285488 0.00126214)
"freq" 3.80189e+08
"V0" (-0.000916108 0.000350334)
"V1" (-7.56827e-05 0.000166964)
"V2" (-0.00799195 -0.0156739)
"V3" (-0.00747018 0.00419670)
"V4" (-0.000916108 0.000350334)
"freq" 6.30957e+08
"V0" (-0.000316037 0.000112723)
"V1" (-2.27007e-05 0.000101088)
"V2" (-0.00215613 -0.00835998)
"V3" (-0.00634538 0.00275336)
"V4" (-0.000316037 0.000112723)
"freq" 1.04713e+09
"V0" (-0.000111987 4.58036e-05)
"V1" (-5.90001e-06 6.05579e-05)
"V2" (8.74592e-05 -0.00478944)
"V3" (-0.00590923 0.00171582)
"V4" (-0.000111987 4.58036e-05)
"freq" 1.73780e+09
"V0" (-3.97132e-05 2.27631e-05)
"V1" (-1.75282e-07 3.64470e-05)
"V2" (0.000919493 -0.00282784)
"V3" (-0.00574577 0.00105574)
"V4" (-3.97132e-05 2.27631e-05)
"freq" 2.88403e+09
"V0" (-1.36913e-05 1.27330e-05)
"V1" (1.88085e-06 2.20720e-05)
"V2" (0.00122508 -0.00168630)
"V3" (-0.00568227 0.000655440)
"V4" (-1.36913e-05 1.27330e-05)
"freq" 4.78630e+09
"V0" (-4.22715e-06 7.56714e-06)
"V1" (2.69433e-06 1.34969e-05)
"V2" (0.00133920 -0.00100536)
"V3" (-0.00565064 0.000419689)
"V4" (-4.22715e-06 7.56714e-06)
"freq" 7.94328e+09
"V0" (-7.08501e-07 4.65895e-06)
"V1" (3.12312e-06 8.36930e-06)
"V2" (0.00138591 -0.000595649)
"V3" (-0.00562348 0.000281781)
"V4" (-7.08501e-07 4.65895e-06)
"freq" 1.31826e+10
"V0" (6.67650e-07 2.92011e-06)
"V1" (3.43185e-06 5.24206e-06)
"V2" (0.00140891 -0.000350537)
"V3" (-0.00559475 0.000195069)
"V4" (6.67650e-07 2.92011e-06)
"freq" 2.18776e+10
"V0" (1.22375e-06 1.83417e-06)
"V1" (3.62985e-06 3.29090e-06)
"V2" (0.00142076 -0.000205345)
"V3" (-0.00557123 0.000134889)
"V4" (1.22375e-06 1.83417e-06)
"freq" 3.63078e+10
"V0" (1.43706e-06 1.17217e-06)
"V1" (3.71804e-06 2.11216e-06)
"V2" (0.00142587 -0.000117719)
"V3" (-0.00555652 9.47305e-05)
"V4" (1.43706e-06 1.17217e-06)
"freq" 6.02560e+10
"V0" (1.51948e-06 8.10166e-07)
"V1" (3.76031e-06 1.47813e-06)
"V2" (0.00142835 -6.14924e-05)
"V3" (-0.00554765 7.21587e-05)
"V4" (1.51948e-06 8.10166e-07)
"freq" 1.00000e+11
"V0" (1.57471e-06 6.59874e-07)
"V1" (3.82617e-06 1.23013e-06)
"V2" (0.00143162 -2.16338e-05)
"V3" (-0.00554032 6.47709e-05)
"V4" (1.57471e-06 6.59874e-07)
END
